<Qucs Dataset 0.0.15>
<indep x 10>
  +5.00000000000e+00
  +1.00000000000e+01
  +1.50000000000e+01
  +2.00000000000e+01
  +2.50000000000e+01
  +3.00000000000e+01
  +3.50000000000e+01
  +4.00000000000e+01
  +4.50000000000e+01
  +5.00000000000e+01
</indep>
<dep V1.I x>
  -3.24545454545e+00
  -2.23125000000e+00
  -1.70000000000e+00
  -1.37307692308e+00
  -1.15161290323e+00
  -9.91666666667e-01
  -8.70731707317e-01
  -7.76086956522e-01
  -7.00000000000e-01
  -6.37500000000e-01
</dep>
<dep Izeja.V x>
  +1.62272727273e+01
  +2.23125000000e+01
  +2.55000000000e+01
  +2.74615384615e+01
  +2.87903225806e+01
  +2.97500000000e+01
  +3.04756097561e+01
  +3.10434782609e+01
  +3.15000000000e+01
  +3.18750000000e+01
</dep>
<dep _net0.V x>
  +3.57000000000e+01
  +3.57000000000e+01
  +3.57000000000e+01
  +3.57000000000e+01
  +3.57000000000e+01
  +3.57000000000e+01
  +3.57000000000e+01
  +3.57000000000e+01
  +3.57000000000e+01
  +3.57000000000e+01
</dep>
